T4138 000:006.554   SEGGER J-Link V6.54c Log File
T4138 000:006.681   DLL Compiled: Nov  7 2019 17:01:02
T4138 000:006.690   Logging started @ 2021-12-12 12:17
T4138 000:006.700 JLINK_SetWarnOutHandler(...)
T4138 000:006.710 - 0.013ms
T4138 000:006.723 JLINK_OpenEx(...)
T4138 000:008.409   Firmware: J-Link V11 compiled Feb  4 2021 12:59:17
T4138 000:019.435   Hardware: V11.00
T4138 000:019.483   S/N: 50120677
T4138 000:019.498   OEM: SEGGER
T4138 000:019.513   Feature(s): GDB, JFlash, FlashDL, RDI, FlashBP
T4138 000:021.101   TELNET listener socket opened on port 19021
T4138 000:042.421   WEBSRV Starting webserver
T4138 000:042.550   WEBSRV Webserver running on local port 19080
T4138 000:042.565 - 35.846ms returns "O.K."
T4138 000:042.580 JLINK_GetEmuCaps()
T4138 000:042.593 - 0.016ms returns 0xB9FF7BBF
T4138 000:042.605 JLINK_TIF_GetAvailable(...)
T4138 000:042.747 - 0.153ms
T4138 000:042.767 JLINK_SetErrorOutHandler(...)
T4138 000:042.775 - 0.012ms
T4138 000:042.799 JLINK_ExecCommand("ProjectFile = "C:\Users\shanzemin\Desktop\1\jzj\MDK-ARM\JLinkSettings.ini"", ...). 
T4138 000:045.115   Ref file found at: C:\Keil_v5\ARM\Segger\JLinkDevices.ref
T4138 000:045.291   XML referenced by ref file: C:\Program Files (x86)\SEGGER\JLink\JLinkDevices.xml
T4138 000:046.833   C:\Program Files (x86)\SEGGER\JLink\JLinkDevices.xml evaluated successfully.
T4138 000:130.178   Device "CORTEX-M0" selected.
T4138 000:130.923 - 88.137ms returns 0x00
T4138 000:132.864 JLINK_ExecCommand("Device = STM32G070RBTx", ...). 
T4138 000:135.343   Device "CORTEX-M0" selected.
T4138 000:136.049 - 3.174ms returns 0x00
T4138 000:136.064 JLINK_ExecCommand("DisableConnectionTimeout", ...). 
T4138 000:136.077 - 0.007ms returns 0x01
T4138 000:136.087 JLINK_GetHardwareVersion()
T4138 000:136.095 - 0.012ms returns 0x1ADB0
T4138 000:136.112 JLINK_GetDLLVersion()  returns 65403
T4138 000:136.125 JLINK_GetFirmwareString(...)
T4138 000:136.134 - 0.012ms
T4138 000:142.080 JLINK_GetDLLVersion()  returns 65403
T4138 000:142.099 JLINK_GetCompileDateTime()
T4138 000:142.107 - 0.012ms
T4138 000:143.971 JLINK_GetFirmwareString(...)
T4138 000:143.986 - 0.019ms
T4138 000:145.870 JLINK_GetHardwareVersion()
T4138 000:145.890 - 0.025ms returns 0x1ADB0
T4138 000:155.142 JLINK_TIF_Select(JLINKARM_TIF_SWD)
T4138 000:155.924 - 0.792ms returns 0x00
T4138 000:155.952 JLINK_SetSpeed(5000)
T4138 000:156.078 - 0.133ms
T4138 000:156.094 JLINK_GetId()
T4138 000:158.739   Found SW-DP with ID 0x0BC11477
T4138 000:163.400   Scanning AP map to find all available APs
T4138 000:168.319   AP[1]: Stopped AP scan as end of AP map has been reached
T4138 000:170.239   AP[0]: AHB-AP (IDR: 0x04770031)
T4138 000:172.157   Iterating through AP map to find AHB-AP to use
T4138 000:179.466   AP[0]: Core found
T4138 000:182.493   AP[0]: AHB-AP ROM base: 0xF0000000
T4138 000:186.848   CPUID register: 0x410CC601. Implementer code: 0x41 (ARM)
T4138 000:188.875   Found Cortex-M0 r0p1, Little endian.
T4138 000:290.027    -- Max. mem block: 0x00004770
T4138 000:290.078    -- CPU_ReadMem(4 bytes @ 0xE000EDF0)
T4138 000:290.506    -- CPU_WriteMem(4 bytes @ 0xE000EDF0)
T4138 000:290.757    -- CPU_ReadMem(4 bytes @ 0xE0002000)
T4138 000:293.202   FPUnit: 4 code (BP) slots and 0 literal slots
T4138 000:293.223    -- CPU_ReadMem(4 bytes @ 0xE000EDFC)
T4138 000:293.424    -- CPU_WriteMem(4 bytes @ 0xE000EDFC)
T4138 000:293.632    -- CPU_ReadMem(4 bytes @ 0xE0001000)
T4138 000:293.861    -- CPU_WriteMem(4 bytes @ 0xE0001000)
T4138 000:296.018   CoreSight components:
T4138 000:297.907   ROMTbl[0] @ F0000000
T4138 000:297.928    -- CPU_ReadMem(16 bytes @ 0xF0000000)
T4138 000:298.177    -- CPU_ReadMem(16 bytes @ 0xE00FFFF0)
T4138 000:298.405    -- CPU_ReadMem(16 bytes @ 0xE00FFFE0)
T4138 000:300.556   ROMTbl[0][0]: E00FF000, CID: B105100D, PID: 000BB4C0 ROM Table
T4138 000:305.025   ROMTbl[1] @ E00FF000
T4138 000:305.049    -- CPU_ReadMem(16 bytes @ 0xE00FF000)
T4138 000:305.279    -- CPU_ReadMem(16 bytes @ 0xE000EFF0)
T4138 000:305.530    -- CPU_ReadMem(16 bytes @ 0xE000EFE0)
T4138 000:307.860   ROMTbl[1][0]: E000E000, CID: B105E00D, PID: 000BB008 SCS
T4138 000:307.880    -- CPU_ReadMem(16 bytes @ 0xE0001FF0)
T4138 000:308.113    -- CPU_ReadMem(16 bytes @ 0xE0001FE0)
T4138 000:310.425   ROMTbl[1][1]: E0001000, CID: B105E00D, PID: 000BB00A DWT
T4138 000:310.446    -- CPU_ReadMem(16 bytes @ 0xE0002FF0)
T4138 000:310.696    -- CPU_ReadMem(16 bytes @ 0xE0002FE0)
T4138 000:312.889   ROMTbl[1][2]: E0002000, CID: B105E00D, PID: 000BB00B FPB
T4138 000:312.910    -- CPU_ReadMem(16 bytes @ 0xF0000010)
T4138 000:313.552 - 157.467ms   returns 0x0BC11477
T4138 000:313.575 JLINK_GetDLLVersion()  returns 65403
T4138 000:313.694 JLINK_CORE_GetFound()
T4138 000:313.704 - 0.013ms returns 0x60000FF
T4138 000:313.720 JLINK_GetDebugInfo(0x100 = JLINKARM_ROM_TABLE_ADDR_INDEX)
T4138 000:313.730   Value=0xF0000000
T4138 000:313.742 - 0.025ms returns 0x00
T4138 000:315.845 JLINK_GetDebugInfo(0x100 = JLINKARM_ROM_TABLE_ADDR_INDEX)
T4138 000:315.865   Value=0xF0000000
T4138 000:315.876 - 0.034ms returns 0x00
T4138 000:315.885 JLINK_GetDebugInfo(0x101 = JLINKARM_DEBUG_INFO_ETM_ADDR_INDEX)
T4138 000:315.894   Value=0x00000000
T4138 000:315.905 - 0.023ms returns 0x00
T4138 000:315.926   JLINK_ReadMemEx(0xE0041FF0, 0x0010 Bytes, ..., Flags = 0x02000004)
T4138 000:315.958    -- CPU_ReadMem(16 bytes @ 0xE0041FF0)
T4138 000:316.225   Data:  00 00 00 00 00 00 00 00 00 00 00 00 00 00 00 00
T4138 000:316.244 - 0.326ms returns 0x10
T4138 000:316.255 JLINK_GetDebugInfo(0x102 = JLINKARM_DEBUG_INFO_MTB_ADDR_INDEX)
T4138 000:316.264   Value=0x00000000
T4138 000:316.275 - 0.024ms returns 0x00
T4138 000:316.284 JLINK_GetDebugInfo(0x103 = JLINKARM_DEBUG_INFO_TPIU_ADDR_INDEX)
T4138 000:316.293   Value=0x00000000
T4138 000:316.304 - 0.024ms returns 0x00
T4138 000:316.313   JLINK_ReadMemEx(0xE0040FF0, 0x0010 Bytes, ..., Flags = 0x02000004)
T4138 000:316.330    -- CPU_ReadMem(16 bytes @ 0xE0040FF0)
T4138 000:316.571   Data:  00 00 00 00 00 00 00 00 00 00 00 00 00 00 00 00
T4138 000:316.587 - 0.277ms returns 0x10
T4138 000:316.597 JLINK_GetDebugInfo(0x104 = JLINKARM_DEBUG_INFO_ITM_ADDR_INDEX)
T4138 000:316.605   Value=0xE0000000
T4138 000:316.617 - 0.024ms returns 0x00
T4138 000:316.626 JLINK_GetDebugInfo(0x105 = JLINKARM_DEBUG_INFO_DWT_ADDR_INDEX)
T4138 000:316.634   Value=0xE0001000
T4138 000:316.646 - 0.023ms returns 0x00
T4138 000:316.654 JLINK_GetDebugInfo(0x106 = JLINKARM_DEBUG_INFO_FPB_ADDR_INDEX)
T4138 000:316.663   Value=0xE0002000
T4138 000:316.674 - 0.023ms returns 0x00
T4138 000:316.683 JLINK_GetDebugInfo(0x107 = JLINKARM_DEBUG_INFO_NVIC_ADDR_INDEX)
T4138 000:316.691   Value=0xE000E000
T4138 000:316.703 - 0.024ms returns 0x00
T4138 000:316.712 JLINK_GetDebugInfo(0x10C = JLINKARM_DEBUG_INFO_DBG_ADDR_INDEX)
T4138 000:316.720   Value=0xE000EDF0
T4138 000:316.732 - 0.024ms returns 0x00
T4138 000:316.740 JLINK_GetDebugInfo(0x01 = Unknown)
T4138 000:316.755   Value=0x00000000
T4138 000:316.766 - 0.030ms returns 0x00
T4138 000:316.776   JLINK_ReadMemU32(0xE000ED00, 0x0001 Items, ...)
T4138 000:316.791    -- CPU_ReadMem(4 bytes @ 0xE000ED00)
T4138 000:317.006   Data:  01 C6 0C 41
T4138 000:317.025    - CPUID
T4138 000:317.037 - 0.265ms returns 1
T4138 000:317.047 JLINK_GetDebugInfo(0x10F = JLINKARM_DEBUG_INFO_HAS_CORTEX_M_SECURITY_EXT_INDEX)
T4138 000:317.056   Value=0x00000000
T4138 000:317.067 - 0.024ms returns 0x00
T4138 000:317.078 JLINK_SetResetType(JLINKARM_CM3_RESET_TYPE_NORMAL)
T4138 000:317.086 - 0.012ms returns JLINKARM_CM3_RESET_TYPE_NORMAL
T4138 000:317.095 JLINK_Reset()
T4138 000:317.115   CPU is running
T4138 000:317.129    -- CPU_WriteMem(4 bytes @ 0xE000EDF0)
T4138 000:317.340   CPU is running
T4138 000:317.356    -- CPU_WriteMem(4 bytes @ 0xE000EDFC)
T4138 000:319.676   Reset: Halt core after reset via DEMCR.VC_CORERESET.
T4138 000:321.982   Reset: Reset device via AIRCR.SYSRESETREQ.
T4138 000:322.003   CPU is running
T4138 000:322.016    -- CPU_WriteMem(4 bytes @ 0xE000ED0C)
T4138 000:374.835    -- CPU_ReadMem(4 bytes @ 0xE000EDF0)
T4138 000:375.167    -- CPU_ReadMem(4 bytes @ 0xE000EDF0)
T4138 000:375.414   CPU is running
T4138 000:375.441    -- CPU_WriteMem(4 bytes @ 0xE000EDF0)
T4138 000:375.654   CPU is running
T4138 000:375.674    -- CPU_WriteMem(4 bytes @ 0xE000EDFC)
T4138 000:381.484    -- CPU_ReadMem(4 bytes @ 0xE000EDF0)
T4138 000:383.492    -- CPU_WriteMem(4 bytes @ 0xE0002000)
T4138 000:383.736    -- CPU_ReadMem(4 bytes @ 0xE000EDFC)
T4138 000:383.984    -- CPU_ReadMem(4 bytes @ 0xE0001000)
T4138 000:384.235    -- CPU_WriteMem(4 bytes @ 0xE0001000)
T4138 000:384.474 - 67.390ms
T4138 000:384.496 JLINK_Halt()
T4138 000:384.506 - 0.013ms returns 0x00
T4138 000:384.516   JLINK_ReadMemU32(0xE000EDF0, 0x0001 Items, ...)
T4138 000:384.534    -- CPU_ReadMem(4 bytes @ 0xE000EDF0)
T4138 000:384.741   Data:  03 00 03 00
T4138 000:384.757    - DHCSR
T4138 000:384.769 - 0.257ms returns 1
T4138 000:384.780   JLINK_WriteU32(0xE000EDF0, 0xA05F0003)
T4138 000:384.793    - DHCSR
T4138 000:384.817    -- CPU_WriteMem(4 bytes @ 0xE000EDF0)
T4138 000:385.006 - 0.234ms returns 0
T4138 000:385.021   JLINK_WriteU32(0xE000EDFC, 0x01000000)
T4138 000:385.033    - DEMCR
T4138 000:385.048    -- CPU_WriteMem(4 bytes @ 0xE000EDFC)
T4138 000:385.266 - 0.252ms returns 0
T4138 000:394.516 JLINK_GetHWStatus(...)
T4138 000:394.683 - 0.174ms returns 0x00
T4138 000:400.178 JLINK_GetNumBPUnits(Type = 0xFFFFFF00)
T4138 000:400.194 - 0.020ms returns 0x04
T4138 000:400.204 JLINK_GetNumBPUnits(Type = 0xF0)
T4138 000:400.212 - 0.012ms returns 0x2000
T4138 000:400.221 JLINK_GetNumWPUnits()
T4138 000:400.229 - 0.012ms returns 0x02
T4138 000:408.724 JLINK_GetSpeed()
T4138 000:408.753 - 0.033ms returns 0x1388
T4138 000:412.349   JLINK_ReadMemU32(0xE000E004, 0x0001 Items, ...)
T4138 000:412.380    -- CPU_ReadMem(4 bytes @ 0xE000E004)
T4138 000:412.630   Data:  00 00 00 00
T4138 000:412.650 - 0.305ms returns 1
T4138 000:412.664 JLINK_Halt()
T4138 000:412.673 - 0.013ms returns 0x00
T4138 000:412.682 JLINK_IsHalted()
T4138 000:412.691 - 0.013ms returns TRUE
T4138 000:415.594 JLINK_WriteMem(0x20000000, 0x0114 Bytes, ...)
T4138 000:415.607   Data:  00 BE 0A E0 0D 78 2D 06 68 40 08 24 40 00 00 D3 ...
T4138 000:415.908    -- CPU_WriteMem(276 bytes @ 0x20000000)
T4138 000:416.968 - 1.382ms returns 0x114
T4138 000:417.004 JLINK_WriteReg(R0, 0x08000000)
T4138 000:417.017 - 0.017ms returns 0x00
T4138 000:417.027 JLINK_WriteReg(R1, 0x00B71B00)
T4138 000:417.035 - 0.012ms returns 0x00
T4138 000:417.044 JLINK_WriteReg(R2, 0x00000001)
T4138 000:417.053 - 0.013ms returns 0x00
T4138 000:417.062 JLINK_WriteReg(R3, 0x00000000)
T4138 000:417.070 - 0.012ms returns 0x00
T4138 000:417.080 JLINK_WriteReg(R4, 0x00000000)
T4138 000:417.088 - 0.012ms returns 0x00
T4138 000:417.097 JLINK_WriteReg(R5, 0x00000000)
T4138 000:417.106 - 0.012ms returns 0x00
T4138 000:417.115 JLINK_WriteReg(R6, 0x00000000)
T4138 000:417.123 - 0.012ms returns 0x00
T4138 000:417.132 JLINK_WriteReg(R7, 0x00000000)
T4138 000:417.141 - 0.012ms returns 0x00
T4138 000:417.150 JLINK_WriteReg(R8, 0x00000000)
T4138 000:417.158 - 0.012ms returns 0x00
T4138 000:417.167 JLINK_WriteReg(R9, 0x20000110)
T4138 000:417.176 - 0.012ms returns 0x00
T4138 000:417.184 JLINK_WriteReg(R10, 0x00000000)
T4138 000:417.193 - 0.013ms returns 0x00
T4138 000:417.202 JLINK_WriteReg(R11, 0x00000000)
T4138 000:417.210 - 0.012ms returns 0x00
T4138 000:417.220 JLINK_WriteReg(R12, 0x00000000)
T4138 000:417.228 - 0.012ms returns 0x00
T4138 000:417.237 JLINK_WriteReg(R13 (SP), 0x20001000)
T4138 000:417.246 - 0.013ms returns 0x00
T4138 000:417.255 JLINK_WriteReg(R14, 0x20000001)
T4138 000:417.264 - 0.012ms returns 0x00
T4138 000:417.273 JLINK_WriteReg(R15 (PC), 0x2000002C)
T4138 000:417.282 - 0.013ms returns 0x00
T4138 000:417.291 JLINK_WriteReg(XPSR, 0x01000000)
T4138 000:417.299 - 0.012ms returns 0x00
T4138 000:417.309 JLINK_WriteReg(MSP, 0x20001000)
T4138 000:417.318 - 0.013ms returns 0x00
T4138 000:417.327 JLINK_WriteReg(PSP, 0x20001000)
T4138 000:417.336 - 0.012ms returns 0x00
T4138 000:417.348 JLINK_WriteReg(CFBP, 0x00000000)
T4138 000:417.359 - 0.014ms returns 0x00
T4138 000:417.368   JLINK_SetBPEx(Addr = 0x20000000, Type = 0xFFFFFFF2)
T4138 000:417.383    -- CPU_ReadMem(4 bytes @ 0x20000000)
T4138 000:417.591    -- CPU_WriteMem(4 bytes @ 0x20000000)
T4138 000:417.798    -- CPU_ReadMem(4 bytes @ 0x20000000)
T4138 000:418.006    -- CPU_WriteMem(4 bytes @ 0x20000000)
T4138 000:418.258    -- CPU_ReadMem(2 bytes @ 0x20000000)
T4138 000:418.488 - 1.128ms returns 0x00000001
T4138 000:418.505 JLINK_Go()
T4138 000:418.518    -- CPU_WriteMem(2 bytes @ 0x20000000)
T4138 000:418.766    -- CPU_ReadMem(4 bytes @ 0xE0001000)
T4138 000:419.010    -- CPU_WriteMem(4 bytes @ 0xE0001000)
T4138 000:419.029    -- CPU_WriteMem(4 bytes @ 0xE0002008)
T4138 000:419.041    -- CPU_WriteMem(4 bytes @ 0xE000200C)
T4138 000:419.053    -- CPU_WriteMem(4 bytes @ 0xE0002010)
T4138 000:419.065    -- CPU_WriteMem(4 bytes @ 0xE0002014)
T4138 000:419.726    -- CPU_WriteMem(4 bytes @ 0xE0001004)
T4138 000:421.445 - 2.950ms
T4138 000:421.462 JLINK_IsHalted()
T4138 000:423.059    -- CPU_ReadMem(2 bytes @ 0x20000000)
T4138 000:423.281 - 1.826ms returns TRUE
T4138 000:423.296 JLINK_ReadReg(R15 (PC))
T4138 000:423.306 - 0.014ms returns 0x20000000
T4138 000:423.316 JLINK_ClrBPEx(BPHandle = 0x00000001)
T4138 000:423.325 - 0.012ms returns 0x00
T4138 000:423.334 JLINK_ReadReg(R0)
T4138 000:423.343 - 0.013ms returns 0x00000000
T4138 000:423.740 JLINK_WriteReg(R0, 0x08000000)
T4138 000:423.756 - 0.020ms returns 0x00
T4138 000:423.766 JLINK_WriteReg(R1, 0x00B71B00)
T4138 000:423.774 - 0.012ms returns 0x00
T4138 000:423.783 JLINK_WriteReg(R2, 0x00000001)
T4138 000:423.792 - 0.012ms returns 0x00
T4138 000:423.800 JLINK_WriteReg(R3, 0x00000000)
T4138 000:423.809 - 0.013ms returns 0x00
T4138 000:423.818 JLINK_WriteReg(R4, 0x00000000)
T4138 000:423.827 - 0.012ms returns 0x00
T4138 000:423.836 JLINK_WriteReg(R5, 0x00000000)
T4138 000:423.844 - 0.012ms returns 0x00
T4138 000:423.853 JLINK_WriteReg(R6, 0x00000000)
T4138 000:423.862 - 0.012ms returns 0x00
T4138 000:423.870 JLINK_WriteReg(R7, 0x00000000)
T4138 000:423.879 - 0.012ms returns 0x00
T4138 000:423.888 JLINK_WriteReg(R8, 0x00000000)
T4138 000:423.897 - 0.012ms returns 0x00
T4138 000:423.905 JLINK_WriteReg(R9, 0x20000110)
T4138 000:423.914 - 0.012ms returns 0x00
T4138 000:423.923 JLINK_WriteReg(R10, 0x00000000)
T4138 000:423.931 - 0.012ms returns 0x00
T4138 000:423.940 JLINK_WriteReg(R11, 0x00000000)
T4138 000:423.949 - 0.012ms returns 0x00
T4138 000:423.958 JLINK_WriteReg(R12, 0x00000000)
T4138 000:423.966 - 0.012ms returns 0x00
T4138 000:423.975 JLINK_WriteReg(R13 (SP), 0x20001000)
T4138 000:423.983 - 0.012ms returns 0x00
T4138 000:423.993 JLINK_WriteReg(R14, 0x20000001)
T4138 000:424.001 - 0.012ms returns 0x00
T4138 000:424.010 JLINK_WriteReg(R15 (PC), 0x2000004E)
T4138 000:424.019 - 0.013ms returns 0x00
T4138 000:424.028 JLINK_WriteReg(XPSR, 0x01000000)
T4138 000:424.036 - 0.012ms returns 0x00
T4138 000:424.045 JLINK_WriteReg(MSP, 0x20001000)
T4138 000:424.053 - 0.012ms returns 0x00
T4138 000:424.062 JLINK_WriteReg(PSP, 0x20001000)
T4138 000:424.071 - 0.012ms returns 0x00
T4138 000:424.080 JLINK_WriteReg(CFBP, 0x00000000)
T4138 000:424.089 - 0.013ms returns 0x00
T4138 000:424.098   JLINK_SetBPEx(Addr = 0x20000000, Type = 0xFFFFFFF2)
T4138 000:424.111 - 0.017ms returns 0x00000002
T4138 000:424.120 JLINK_Go()
T4138 000:424.133    -- CPU_ReadMem(4 bytes @ 0xE0001000)
T4138 000:424.385    -- CPU_WriteMem(4 bytes @ 0xE0001000)
T4138 000:426.131 - 2.019ms
T4138 000:426.145 JLINK_IsHalted()
T4138 000:426.380 - 0.241ms returns FALSE
T4138 000:459.261 JLINK_IsHalted()
T4138 000:460.930    -- CPU_ReadMem(2 bytes @ 0x20000000)
T4138 000:461.130 - 1.876ms returns TRUE
T4138 000:461.145 JLINK_ReadReg(R15 (PC))
T4138 000:461.155 - 0.014ms returns 0x20000000
T4138 000:461.164 JLINK_ClrBPEx(BPHandle = 0x00000002)
T4138 000:461.173 - 0.013ms returns 0x00
T4138 000:461.183 JLINK_ReadReg(R0)
T4138 000:461.193 - 0.015ms returns 0x00000000
T4138 000:513.051 JLINK_WriteReg(R0, 0x00000001)
T4138 000:513.096 - 0.050ms returns 0x00
T4138 000:513.106 JLINK_WriteReg(R1, 0x00B71B00)
T4138 000:513.115 - 0.013ms returns 0x00
T4138 000:513.125 JLINK_WriteReg(R2, 0x00000001)
T4138 000:513.133 - 0.012ms returns 0x00
T4138 000:513.142 JLINK_WriteReg(R3, 0x00000000)
T4138 000:513.151 - 0.012ms returns 0x00
T4138 000:513.159 JLINK_WriteReg(R4, 0x00000000)
T4138 000:513.168 - 0.013ms returns 0x00
T4138 000:513.177 JLINK_WriteReg(R5, 0x00000000)
T4138 000:513.186 - 0.012ms returns 0x00
T4138 000:513.194 JLINK_WriteReg(R6, 0x00000000)
T4138 000:513.203 - 0.012ms returns 0x00
T4138 000:513.212 JLINK_WriteReg(R7, 0x00000000)
T4138 000:513.220 - 0.012ms returns 0x00
T4138 000:513.229 JLINK_WriteReg(R8, 0x00000000)
T4138 000:513.238 - 0.012ms returns 0x00
T4138 000:513.247 JLINK_WriteReg(R9, 0x20000110)
T4138 000:513.255 - 0.012ms returns 0x00
T4138 000:513.264 JLINK_WriteReg(R10, 0x00000000)
T4138 000:513.272 - 0.012ms returns 0x00
T4138 000:513.282 JLINK_WriteReg(R11, 0x00000000)
T4138 000:513.290 - 0.012ms returns 0x00
T4138 000:513.299 JLINK_WriteReg(R12, 0x00000000)
T4138 000:513.308 - 0.013ms returns 0x00
T4138 000:513.317 JLINK_WriteReg(R13 (SP), 0x20001000)
T4138 000:513.326 - 0.013ms returns 0x00
T4138 000:513.335 JLINK_WriteReg(R14, 0x20000001)
T4138 000:513.343 - 0.012ms returns 0x00
T4138 000:513.352 JLINK_WriteReg(R15 (PC), 0x2000003E)
T4138 000:513.361 - 0.012ms returns 0x00
T4138 000:513.370 JLINK_WriteReg(XPSR, 0x01000000)
T4138 000:513.378 - 0.013ms returns 0x00
T4138 000:513.387 JLINK_WriteReg(MSP, 0x20001000)
T4138 000:513.396 - 0.012ms returns 0x00
T4138 000:513.405 JLINK_WriteReg(PSP, 0x20001000)
T4138 000:513.413 - 0.012ms returns 0x00
T4138 000:513.422 JLINK_WriteReg(CFBP, 0x00000000)
T4138 000:513.431 - 0.012ms returns 0x00
T4138 000:513.440   JLINK_SetBPEx(Addr = 0x20000000, Type = 0xFFFFFFF2)
T4138 000:513.454 - 0.018ms returns 0x00000003
T4138 000:513.463 JLINK_Go()
T4138 000:513.482    -- CPU_ReadMem(4 bytes @ 0xE0001000)
T4138 000:513.730    -- CPU_WriteMem(4 bytes @ 0xE0001000)
T4138 000:515.403 - 1.948ms
T4138 000:515.420 JLINK_IsHalted()
T4138 000:517.035    -- CPU_ReadMem(2 bytes @ 0x20000000)
T4138 000:517.241 - 1.830ms returns TRUE
T4138 000:517.259 JLINK_ReadReg(R15 (PC))
T4138 000:517.269 - 0.014ms returns 0x20000000
T4138 000:517.279 JLINK_ClrBPEx(BPHandle = 0x00000003)
T4138 000:517.288 - 0.013ms returns 0x00
T4138 000:517.299 JLINK_ReadReg(R0)
T4138 000:517.308 - 0.013ms returns 0x00000000
T4138 000:521.304 JLINK_WriteMem(0x20000000, 0x0114 Bytes, ...)
T4138 000:521.319   Data:  00 BE 0A E0 0D 78 2D 06 68 40 08 24 40 00 00 D3 ...
T4138 000:521.336    -- CPU_WriteMem(276 bytes @ 0x20000000)
T4138 000:522.299 - 1.004ms returns 0x114
T4138 000:522.334 JLINK_WriteReg(R0, 0x08000000)
T4138 000:522.346 - 0.016ms returns 0x00
T4138 000:522.355 JLINK_WriteReg(R1, 0x00B71B00)
T4138 000:522.364 - 0.013ms returns 0x00
T4138 000:522.373 JLINK_WriteReg(R2, 0x00000002)
T4138 000:522.382 - 0.013ms returns 0x00
T4138 000:522.391 JLINK_WriteReg(R3, 0x00000000)
T4138 000:522.399 - 0.012ms returns 0x00
T4138 000:522.408 JLINK_WriteReg(R4, 0x00000000)
T4138 000:522.417 - 0.012ms returns 0x00
T4138 000:522.426 JLINK_WriteReg(R5, 0x00000000)
T4138 000:522.434 - 0.012ms returns 0x00
T4138 000:522.443 JLINK_WriteReg(R6, 0x00000000)
T4138 000:522.452 - 0.012ms returns 0x00
T4138 000:522.461 JLINK_WriteReg(R7, 0x00000000)
T4138 000:522.469 - 0.012ms returns 0x00
T4138 000:522.478 JLINK_WriteReg(R8, 0x00000000)
T4138 000:522.487 - 0.012ms returns 0x00
T4138 000:522.496 JLINK_WriteReg(R9, 0x20000110)
T4138 000:522.505 - 0.013ms returns 0x00
T4138 000:522.514 JLINK_WriteReg(R10, 0x00000000)
T4138 000:522.522 - 0.012ms returns 0x00
T4138 000:522.531 JLINK_WriteReg(R11, 0x00000000)
T4138 000:522.540 - 0.012ms returns 0x00
T4138 000:522.549 JLINK_WriteReg(R12, 0x00000000)
T4138 000:522.557 - 0.013ms returns 0x00
T4138 000:522.566 JLINK_WriteReg(R13 (SP), 0x20001000)
T4138 000:522.575 - 0.016ms returns 0x00
T4138 000:522.589 JLINK_WriteReg(R14, 0x20000001)
T4138 000:522.598 - 0.013ms returns 0x00
T4138 000:522.607 JLINK_WriteReg(R15 (PC), 0x2000002C)
T4138 000:522.615 - 0.012ms returns 0x00
T4138 000:522.624 JLINK_WriteReg(XPSR, 0x01000000)
T4138 000:522.633 - 0.013ms returns 0x00
T4138 000:522.642 JLINK_WriteReg(MSP, 0x20001000)
T4138 000:522.651 - 0.013ms returns 0x00
T4138 000:522.660 JLINK_WriteReg(PSP, 0x20001000)
T4138 000:522.668 - 0.013ms returns 0x00
T4138 000:522.677 JLINK_WriteReg(CFBP, 0x00000000)
T4138 000:522.686 - 0.012ms returns 0x00
T4138 000:522.695   JLINK_SetBPEx(Addr = 0x20000000, Type = 0xFFFFFFF2)
T4138 000:522.710    -- CPU_ReadMem(4 bytes @ 0x20000000)
T4138 000:523.010    -- CPU_WriteMem(4 bytes @ 0x20000000)
T4138 000:523.240    -- CPU_ReadMem(4 bytes @ 0x20000000)
T4138 000:523.486    -- CPU_WriteMem(4 bytes @ 0x20000000)
T4138 000:523.758    -- CPU_ReadMem(2 bytes @ 0x20000000)
T4138 000:523.988 - 1.300ms returns 0x00000004
T4138 000:524.001 JLINK_Go()
T4138 000:524.012    -- CPU_WriteMem(2 bytes @ 0x20000000)
T4138 000:524.243    -- CPU_ReadMem(4 bytes @ 0xE0001000)
T4138 000:524.506    -- CPU_WriteMem(4 bytes @ 0xE0001000)
T4138 000:526.219 - 2.227ms
T4138 000:526.235 JLINK_IsHalted()
T4138 000:527.750    -- CPU_ReadMem(2 bytes @ 0x20000000)
T4138 000:527.947 - 1.719ms returns TRUE
T4138 000:527.961 JLINK_ReadReg(R15 (PC))
T4138 000:527.971 - 0.015ms returns 0x20000000
T4138 000:527.981 JLINK_ClrBPEx(BPHandle = 0x00000004)
T4138 000:527.990 - 0.013ms returns 0x00
T4138 000:528.000 JLINK_ReadReg(R0)
T4138 000:528.009 - 0.014ms returns 0x00000000
T4138 000:528.189 JLINK_WriteMem(0x20000114, 0x02EC Bytes, ...)
T4138 000:528.202   Data:  08 0A 00 20 D1 00 00 08 69 2B 00 08 C3 26 00 08 ...
T4138 000:528.220    -- CPU_WriteMem(748 bytes @ 0x20000114)
T4138 000:530.515 - 2.334ms returns 0x2EC
T4138 000:530.530 JLINK_WriteMem(0x20000400, 0x0114 Bytes, ...)
T4138 000:530.539   Data:  49 08 0B 91 09 99 08 98 A6 46 08 43 1C D0 0B 99 ...
T4138 000:530.554    -- CPU_WriteMem(276 bytes @ 0x20000400)
T4138 000:531.567 - 1.044ms returns 0x114
T4138 000:531.581 JLINK_WriteReg(R0, 0x08000000)
T4138 000:531.591 - 0.014ms returns 0x00
T4138 000:531.600 JLINK_WriteReg(R1, 0x00000400)
T4138 000:531.608 - 0.012ms returns 0x00
T4138 000:531.617 JLINK_WriteReg(R2, 0x20000114)
T4138 000:531.626 - 0.012ms returns 0x00
T4138 000:531.635 JLINK_WriteReg(R3, 0x00000000)
T4138 000:531.644 - 0.012ms returns 0x00
T4138 000:531.652 JLINK_WriteReg(R4, 0x00000000)
T4138 000:531.661 - 0.012ms returns 0x00
T4138 000:531.670 JLINK_WriteReg(R5, 0x00000000)
T4138 000:531.678 - 0.012ms returns 0x00
T4138 000:531.687 JLINK_WriteReg(R6, 0x00000000)
T4138 000:531.696 - 0.012ms returns 0x00
T4138 000:531.705 JLINK_WriteReg(R7, 0x00000000)
T4138 000:531.713 - 0.013ms returns 0x00
T4138 000:531.722 JLINK_WriteReg(R8, 0x00000000)
T4138 000:531.731 - 0.012ms returns 0x00
T4138 000:531.740 JLINK_WriteReg(R9, 0x20000110)
T4138 000:531.748 - 0.012ms returns 0x00
T4138 000:531.757 JLINK_WriteReg(R10, 0x00000000)
T4138 000:531.765 - 0.013ms returns 0x00
T4138 000:531.774 JLINK_WriteReg(R11, 0x00000000)
T4138 000:531.783 - 0.012ms returns 0x00
T4138 000:531.792 JLINK_WriteReg(R12, 0x00000000)
T4138 000:531.800 - 0.012ms returns 0x00
T4138 000:531.809 JLINK_WriteReg(R13 (SP), 0x20001000)
T4138 000:531.818 - 0.012ms returns 0x00
T4138 000:531.827 JLINK_WriteReg(R14, 0x20000001)
T4138 000:531.836 - 0.012ms returns 0x00
T4138 000:531.844 JLINK_WriteReg(R15 (PC), 0x200000BC)
T4138 000:531.853 - 0.013ms returns 0x00
T4138 000:531.862 JLINK_WriteReg(XPSR, 0x01000000)
T4138 000:531.870 - 0.012ms returns 0x00
T4138 000:531.879 JLINK_WriteReg(MSP, 0x20001000)
T4138 000:531.888 - 0.012ms returns 0x00
T4138 000:531.897 JLINK_WriteReg(PSP, 0x20001000)
T4138 000:531.905 - 0.012ms returns 0x00
T4138 000:531.914 JLINK_WriteReg(CFBP, 0x00000000)
T4138 000:531.923 - 0.012ms returns 0x00
T4138 000:531.932   JLINK_SetBPEx(Addr = 0x20000000, Type = 0xFFFFFFF2)
T4138 000:531.949 - 0.021ms returns 0x00000005
T4138 000:531.958 JLINK_Go()
T4138 000:531.970    -- CPU_ReadMem(4 bytes @ 0xE0001000)
T4138 000:532.293    -- CPU_WriteMem(4 bytes @ 0xE0001000)
T4138 000:534.008 - 2.057ms
T4138 000:534.021 JLINK_IsHalted()
T4138 000:534.255 - 0.240ms returns FALSE
T4138 000:545.027 JLINK_IsHalted()
T4138 000:546.732    -- CPU_ReadMem(2 bytes @ 0x20000000)
T4138 000:547.014 - 1.995ms returns TRUE
T4138 000:547.029 JLINK_ReadReg(R15 (PC))
T4138 000:547.039 - 0.014ms returns 0x20000000
T4138 000:547.048 JLINK_ClrBPEx(BPHandle = 0x00000005)
T4138 000:547.057 - 0.013ms returns 0x00
T4138 000:547.067 JLINK_ReadReg(R0)
T4138 000:547.075 - 0.013ms returns 0x00000000
T4138 000:547.381 JLINK_WriteMem(0x20000114, 0x02EC Bytes, ...)
T4138 000:547.394   Data:  03 DA 00 20 01 46 05 B0 F0 BD 00 20 01 21 09 05 ...
T4138 000:547.412    -- CPU_WriteMem(748 bytes @ 0x20000114)
T4138 000:549.802 - 2.429ms returns 0x2EC
T4138 000:549.817 JLINK_WriteMem(0x20000400, 0x0114 Bytes, ...)
T4138 000:549.826   Data:  84 42 F6 DB 00 20 03 49 08 60 01 F0 E7 FF 10 BD ...
T4138 000:549.840    -- CPU_WriteMem(276 bytes @ 0x20000400)
T4138 000:550.913 - 1.104ms returns 0x114
T4138 000:550.929 JLINK_WriteReg(R0, 0x08000400)
T4138 000:550.944 - 0.019ms returns 0x00
T4138 000:550.954 JLINK_WriteReg(R1, 0x00000400)
T4138 000:550.962 - 0.013ms returns 0x00
T4138 000:550.972 JLINK_WriteReg(R2, 0x20000114)
T4138 000:550.980 - 0.012ms returns 0x00
T4138 000:550.989 JLINK_WriteReg(R3, 0x00000000)
T4138 000:550.997 - 0.012ms returns 0x00
T4138 000:551.006 JLINK_WriteReg(R4, 0x00000000)
T4138 000:551.015 - 0.012ms returns 0x00
T4138 000:551.024 JLINK_WriteReg(R5, 0x00000000)
T4138 000:551.032 - 0.012ms returns 0x00
T4138 000:551.041 JLINK_WriteReg(R6, 0x00000000)
T4138 000:551.049 - 0.012ms returns 0x00
T4138 000:551.058 JLINK_WriteReg(R7, 0x00000000)
T4138 000:551.067 - 0.012ms returns 0x00
T4138 000:551.076 JLINK_WriteReg(R8, 0x00000000)
T4138 000:551.085 - 0.012ms returns 0x00
T4138 000:551.093 JLINK_WriteReg(R9, 0x20000110)
T4138 000:551.102 - 0.012ms returns 0x00
T4138 000:551.111 JLINK_WriteReg(R10, 0x00000000)
T4138 000:551.119 - 0.012ms returns 0x00
T4138 000:551.128 JLINK_WriteReg(R11, 0x00000000)
T4138 000:551.137 - 0.013ms returns 0x00
T4138 000:551.146 JLINK_WriteReg(R12, 0x00000000)
T4138 000:551.154 - 0.013ms returns 0x00
T4138 000:551.163 JLINK_WriteReg(R13 (SP), 0x20001000)
T4138 000:551.172 - 0.013ms returns 0x00
T4138 000:551.181 JLINK_WriteReg(R14, 0x20000001)
T4138 000:551.189 - 0.012ms returns 0x00
T4138 000:551.198 JLINK_WriteReg(R15 (PC), 0x200000BC)
T4138 000:551.207 - 0.012ms returns 0x00
T4138 000:551.216 JLINK_WriteReg(XPSR, 0x01000000)
T4138 000:551.225 - 0.012ms returns 0x00
T4138 000:551.233 JLINK_WriteReg(MSP, 0x20001000)
T4138 000:551.242 - 0.012ms returns 0x00
T4138 000:551.251 JLINK_WriteReg(PSP, 0x20001000)
T4138 000:551.259 - 0.012ms returns 0x00
T4138 000:551.268 JLINK_WriteReg(CFBP, 0x00000000)
T4138 000:551.277 - 0.012ms returns 0x00
T4138 000:551.286   JLINK_SetBPEx(Addr = 0x20000000, Type = 0xFFFFFFF2)
T4138 000:551.299 - 0.017ms returns 0x00000006
T4138 000:551.308 JLINK_Go()
T4138 000:551.321    -- CPU_ReadMem(4 bytes @ 0xE0001000)
T4138 000:551.547    -- CPU_WriteMem(4 bytes @ 0xE0001000)
T4138 000:553.330 - 2.043ms
T4138 000:553.358 JLINK_IsHalted()
T4138 000:553.671 - 0.321ms returns FALSE
T4138 000:554.946 JLINK_IsHalted()
T4138 000:555.206 - 0.269ms returns FALSE
T4138 000:557.997 JLINK_IsHalted()
T4138 000:558.197 - 0.208ms returns FALSE
T4138 000:559.998 JLINK_IsHalted()
T4138 000:560.193 - 0.202ms returns FALSE
T4138 000:561.988 JLINK_IsHalted()
T4138 000:562.227 - 0.245ms returns FALSE
T4138 000:563.978 JLINK_IsHalted()
T4138 000:564.207 - 0.236ms returns FALSE
T4138 000:565.974 JLINK_IsHalted()
T4138 000:567.538    -- CPU_ReadMem(2 bytes @ 0x20000000)
T4138 000:567.792 - 1.824ms returns TRUE
T4138 000:567.805 JLINK_ReadReg(R15 (PC))
T4138 000:567.816 - 0.015ms returns 0x20000000
T4138 000:567.825 JLINK_ClrBPEx(BPHandle = 0x00000006)
T4138 000:567.839 - 0.018ms returns 0x00
T4138 000:567.849 JLINK_ReadReg(R0)
T4138 000:567.857 - 0.013ms returns 0x00000000
T4138 000:568.168 JLINK_WriteMem(0x20000114, 0x02EC Bytes, ...)
T4138 000:568.181   Data:  00 68 00 28 EC D0 34 A0 03 F0 CE FA FF 20 2D 30 ...
T4138 000:568.199    -- CPU_WriteMem(748 bytes @ 0x20000114)
T4138 000:570.486 - 2.332ms returns 0x2EC
T4138 000:570.509 JLINK_WriteMem(0x20000400, 0x0114 Bytes, ...)
T4138 000:570.519   Data:  06 46 AE 43 30 46 56 00 CD 68 B5 40 28 43 98 60 ...
T4138 000:570.538    -- CPU_WriteMem(276 bytes @ 0x20000400)
T4138 000:571.604 - 1.105ms returns 0x114
T4138 000:571.625 JLINK_WriteReg(R0, 0x08000800)
T4138 000:571.637 - 0.015ms returns 0x00
T4138 000:571.647 JLINK_WriteReg(R1, 0x00000400)
T4138 000:571.656 - 0.013ms returns 0x00
T4138 000:571.666 JLINK_WriteReg(R2, 0x20000114)
T4138 000:571.675 - 0.013ms returns 0x00
T4138 000:571.685 JLINK_WriteReg(R3, 0x00000000)
T4138 000:571.693 - 0.012ms returns 0x00
T4138 000:571.703 JLINK_WriteReg(R4, 0x00000000)
T4138 000:571.712 - 0.012ms returns 0x00
T4138 000:571.722 JLINK_WriteReg(R5, 0x00000000)
T4138 000:571.730 - 0.013ms returns 0x00
T4138 000:571.740 JLINK_WriteReg(R6, 0x00000000)
T4138 000:571.749 - 0.012ms returns 0x00
T4138 000:571.759 JLINK_WriteReg(R7, 0x00000000)
T4138 000:571.768 - 0.013ms returns 0x00
T4138 000:571.777 JLINK_WriteReg(R8, 0x00000000)
T4138 000:571.787 - 0.013ms returns 0x00
T4138 000:571.796 JLINK_WriteReg(R9, 0x20000110)
T4138 000:571.805 - 0.012ms returns 0x00
T4138 000:571.815 JLINK_WriteReg(R10, 0x00000000)
T4138 000:571.824 - 0.013ms returns 0x00
T4138 000:571.834 JLINK_WriteReg(R11, 0x00000000)
T4138 000:571.842 - 0.012ms returns 0x00
T4138 000:571.852 JLINK_WriteReg(R12, 0x00000000)
T4138 000:571.861 - 0.012ms returns 0x00
T4138 000:571.870 JLINK_WriteReg(R13 (SP), 0x20001000)
T4138 000:571.880 - 0.013ms returns 0x00
T4138 000:571.890 JLINK_WriteReg(R14, 0x20000001)
T4138 000:571.900 - 0.016ms returns 0x00
T4138 000:571.913 JLINK_WriteReg(R15 (PC), 0x200000BC)
T4138 000:571.922 - 0.013ms returns 0x00
T4138 000:571.932 JLINK_WriteReg(XPSR, 0x01000000)
T4138 000:571.941 - 0.013ms returns 0x00
T4138 000:571.951 JLINK_WriteReg(MSP, 0x20001000)
T4138 000:571.960 - 0.013ms returns 0x00
T4138 000:571.969 JLINK_WriteReg(PSP, 0x20001000)
T4138 000:571.978 - 0.013ms returns 0x00
T4138 000:571.988 JLINK_WriteReg(CFBP, 0x00000000)
T4138 000:571.996 - 0.012ms returns 0x00
T4138 000:572.007   JLINK_SetBPEx(Addr = 0x20000000, Type = 0xFFFFFFF2)
T4138 000:572.020 - 0.018ms returns 0x00000007
T4138 000:572.031 JLINK_Go()
T4138 000:572.044    -- CPU_ReadMem(4 bytes @ 0xE0001000)
T4138 000:572.248    -- CPU_WriteMem(4 bytes @ 0xE0001000)
T4138 000:574.007 - 1.985ms
T4138 000:574.023 JLINK_IsHalted()
T4138 000:574.256 - 0.240ms returns FALSE
T4138 000:575.946 JLINK_IsHalted()
T4138 000:576.134 - 0.196ms returns FALSE
T4138 000:577.946 JLINK_IsHalted()
T4138 000:578.134 - 0.195ms returns FALSE
T4138 000:579.935 JLINK_IsHalted()
T4138 000:580.130 - 0.202ms returns FALSE
T4138 000:581.929 JLINK_IsHalted()
T4138 000:582.133 - 0.210ms returns FALSE
T4138 000:583.923 JLINK_IsHalted()
T4138 000:584.164 - 0.247ms returns FALSE
T4138 000:585.863 JLINK_IsHalted()
T4138 000:587.366    -- CPU_ReadMem(2 bytes @ 0x20000000)
T4138 000:587.552 - 1.697ms returns TRUE
T4138 000:587.566 JLINK_ReadReg(R15 (PC))
T4138 000:587.577 - 0.014ms returns 0x20000000
T4138 000:587.615 JLINK_ClrBPEx(BPHandle = 0x00000007)
T4138 000:587.624 - 0.013ms returns 0x00
T4138 000:587.633 JLINK_ReadReg(R0)
T4138 000:587.642 - 0.012ms returns 0x00000000
T4138 000:587.979 JLINK_WriteMem(0x20000114, 0x02EC Bytes, ...)
T4138 000:587.993   Data:  76 05 4D 68 35 40 B5 42 02 D1 05 46 25 43 28 46 ...
T4138 000:588.009    -- CPU_WriteMem(748 bytes @ 0x20000114)
T4138 000:590.397 - 2.426ms returns 0x2EC
T4138 000:590.411 JLINK_WriteMem(0x20000400, 0x0114 Bytes, ...)
T4138 000:590.420   Data:  03 21 09 02 88 43 A1 69 08 43 3C 49 40 31 C8 61 ...
T4138 000:590.485    -- CPU_WriteMem(276 bytes @ 0x20000400)
T4138 000:591.498 - 1.095ms returns 0x114
T4138 000:591.515 JLINK_WriteReg(R0, 0x08000C00)
T4138 000:591.525 - 0.014ms returns 0x00
T4138 000:591.534 JLINK_WriteReg(R1, 0x00000400)
T4138 000:591.543 - 0.013ms returns 0x00
T4138 000:591.552 JLINK_WriteReg(R2, 0x20000114)
T4138 000:591.560 - 0.012ms returns 0x00
T4138 000:591.569 JLINK_WriteReg(R3, 0x00000000)
T4138 000:591.577 - 0.012ms returns 0x00
T4138 000:591.587 JLINK_WriteReg(R4, 0x00000000)
T4138 000:591.595 - 0.012ms returns 0x00
T4138 000:591.604 JLINK_WriteReg(R5, 0x00000000)
T4138 000:591.613 - 0.013ms returns 0x00
T4138 000:591.622 JLINK_WriteReg(R6, 0x00000000)
T4138 000:591.630 - 0.012ms returns 0x00
T4138 000:591.639 JLINK_WriteReg(R7, 0x00000000)
T4138 000:591.647 - 0.012ms returns 0x00
T4138 000:591.656 JLINK_WriteReg(R8, 0x00000000)
T4138 000:591.665 - 0.012ms returns 0x00
T4138 000:591.674 JLINK_WriteReg(R9, 0x20000110)
T4138 000:591.683 - 0.013ms returns 0x00
T4138 000:591.692 JLINK_WriteReg(R10, 0x00000000)
T4138 000:591.700 - 0.012ms returns 0x00
T4138 000:591.709 JLINK_WriteReg(R11, 0x00000000)
T4138 000:591.717 - 0.012ms returns 0x00
T4138 000:591.727 JLINK_WriteReg(R12, 0x00000000)
T4138 000:591.735 - 0.012ms returns 0x00
T4138 000:591.744 JLINK_WriteReg(R13 (SP), 0x20001000)
T4138 000:591.753 - 0.013ms returns 0x00
T4138 000:591.762 JLINK_WriteReg(R14, 0x20000001)
T4138 000:591.771 - 0.012ms returns 0x00
T4138 000:591.779 JLINK_WriteReg(R15 (PC), 0x200000BC)
T4138 000:591.787 - 0.012ms returns 0x00
T4138 000:591.797 JLINK_WriteReg(XPSR, 0x01000000)
T4138 000:591.805 - 0.012ms returns 0x00
T4138 000:591.814 JLINK_WriteReg(MSP, 0x20001000)
T4138 000:591.823 - 0.013ms returns 0x00
T4138 000:591.832 JLINK_WriteReg(PSP, 0x20001000)
T4138 000:591.841 - 0.013ms returns 0x00
T4138 000:591.850 JLINK_WriteReg(CFBP, 0x00000000)
T4138 000:591.859 - 0.012ms returns 0x00
T4138 000:591.869   JLINK_SetBPEx(Addr = 0x20000000, Type = 0xFFFFFFF2)
T4138 000:591.881 - 0.017ms returns 0x00000008
T4138 000:591.891 JLINK_Go()
T4138 000:591.903    -- CPU_ReadMem(4 bytes @ 0xE0001000)
T4138 000:592.134    -- CPU_WriteMem(4 bytes @ 0xE0001000)
T4138 000:593.882 - 1.999ms
T4138 000:593.896 JLINK_IsHalted()
T4138 000:594.129 - 0.240ms returns FALSE
T4138 000:595.891 JLINK_IsHalted()
T4138 000:596.099 - 0.215ms returns FALSE
T4138 000:597.888 JLINK_IsHalted()
T4138 000:598.090 - 0.209ms returns FALSE
T4138 000:599.882 JLINK_IsHalted()
T4138 000:600.136 - 0.263ms returns FALSE
T4138 000:603.877 JLINK_IsHalted()
T4138 000:604.090 - 0.220ms returns FALSE
T4138 000:605.865 JLINK_IsHalted()
T4138 000:607.372    -- CPU_ReadMem(2 bytes @ 0x20000000)
T4138 000:607.569 - 1.712ms returns TRUE
T4138 000:607.583 JLINK_ReadReg(R15 (PC))
T4138 000:607.593 - 0.014ms returns 0x20000000
T4138 000:607.602 JLINK_ClrBPEx(BPHandle = 0x00000008)
T4138 000:607.611 - 0.013ms returns 0x00
T4138 000:607.620 JLINK_ReadReg(R0)
T4138 000:607.628 - 0.012ms returns 0x00000000
T4138 000:607.925 JLINK_WriteMem(0x20000114, 0x02EC Bytes, ...)
T4138 000:607.938   Data:  70 BD 6B 48 00 68 40 07 40 0F A8 42 18 D2 68 48 ...
T4138 000:607.954    -- CPU_WriteMem(748 bytes @ 0x20000114)
T4138 000:610.290 - 2.373ms returns 0x2EC
T4138 000:610.304 JLINK_WriteMem(0x20000400, 0x0114 Bytes, ...)
T4138 000:610.313   Data:  20 78 C0 07 C0 0F 00 28 6F D0 F7 48 87 68 38 21 ...
T4138 000:610.327    -- CPU_WriteMem(276 bytes @ 0x20000400)
T4138 000:611.359 - 1.062ms returns 0x114
T4138 000:611.374 JLINK_WriteReg(R0, 0x08001000)
T4138 000:611.384 - 0.014ms returns 0x00
T4138 000:611.393 JLINK_WriteReg(R1, 0x00000400)
T4138 000:611.401 - 0.013ms returns 0x00
T4138 000:611.410 JLINK_WriteReg(R2, 0x20000114)
T4138 000:611.418 - 0.012ms returns 0x00
T4138 000:611.428 JLINK_WriteReg(R3, 0x00000000)
T4138 000:611.436 - 0.012ms returns 0x00
T4138 000:611.445 JLINK_WriteReg(R4, 0x00000000)
T4138 000:611.453 - 0.012ms returns 0x00
T4138 000:611.462 JLINK_WriteReg(R5, 0x00000000)
T4138 000:611.474 - 0.016ms returns 0x00
T4138 000:611.484 JLINK_WriteReg(R6, 0x00000000)
T4138 000:611.492 - 0.012ms returns 0x00
T4138 000:611.501 JLINK_WriteReg(R7, 0x00000000)
T4138 000:611.510 - 0.012ms returns 0x00
T4138 000:611.519 JLINK_WriteReg(R8, 0x00000000)
T4138 000:611.527 - 0.013ms returns 0x00
T4138 000:611.536 JLINK_WriteReg(R9, 0x20000110)
T4138 000:611.545 - 0.012ms returns 0x00
T4138 000:611.554 JLINK_WriteReg(R10, 0x00000000)
T4138 000:611.562 - 0.012ms returns 0x00
T4138 000:611.571 JLINK_WriteReg(R11, 0x00000000)
T4138 000:611.580 - 0.012ms returns 0x00
T4138 000:611.588 JLINK_WriteReg(R12, 0x00000000)
T4138 000:611.597 - 0.013ms returns 0x00
T4138 000:611.606 JLINK_WriteReg(R13 (SP), 0x20001000)
T4138 000:611.615 - 0.013ms returns 0x00
T4138 000:611.624 JLINK_WriteReg(R14, 0x20000001)
T4138 000:611.632 - 0.012ms returns 0x00
T4138 000:611.641 JLINK_WriteReg(R15 (PC), 0x200000BC)
T4138 000:611.650 - 0.012ms returns 0x00
T4138 000:611.659 JLINK_WriteReg(XPSR, 0x01000000)
T4138 000:611.667 - 0.012ms returns 0x00
T4138 000:611.676 JLINK_WriteReg(MSP, 0x20001000)
T4138 000:611.685 - 0.012ms returns 0x00
T4138 000:611.693 JLINK_WriteReg(PSP, 0x20001000)
T4138 000:611.702 - 0.012ms returns 0x00
T4138 000:611.711 JLINK_WriteReg(CFBP, 0x00000000)
T4138 000:611.719 - 0.012ms returns 0x00
T4138 000:611.729   JLINK_SetBPEx(Addr = 0x20000000, Type = 0xFFFFFFF2)
T4138 000:611.742 - 0.017ms returns 0x00000009
T4138 000:611.750 JLINK_Go()
T4138 000:611.762    -- CPU_ReadMem(4 bytes @ 0xE0001000)
T4138 000:612.001    -- CPU_WriteMem(4 bytes @ 0xE0001000)
T4138 000:613.715 - 1.972ms
T4138 000:613.729 JLINK_IsHalted()
T4138 000:613.957 - 0.234ms returns FALSE
T4138 000:615.783 JLINK_IsHalted()
T4138 000:616.006 - 0.230ms returns FALSE
T4138 000:617.777 JLINK_IsHalted()
T4138 000:617.987 - 0.218ms returns FALSE
T4138 000:619.772 JLINK_IsHalted()
T4138 000:619.973 - 0.208ms returns FALSE
T4138 000:621.826 JLINK_IsHalted()
T4138 000:622.031 - 0.212ms returns FALSE
T4138 000:623.819 JLINK_IsHalted()
T4138 000:624.005 - 0.193ms returns FALSE
T4138 000:625.812 JLINK_IsHalted()
T4138 000:627.442    -- CPU_ReadMem(2 bytes @ 0x20000000)
T4138 000:627.631 - 1.826ms returns TRUE
T4138 000:627.646 JLINK_ReadReg(R15 (PC))
T4138 000:627.656 - 0.014ms returns 0x20000000
T4138 000:627.666 JLINK_ClrBPEx(BPHandle = 0x00000009)
T4138 000:627.675 - 0.012ms returns 0x00
T4138 000:627.685 JLINK_ReadReg(R0)
T4138 000:627.694 - 0.013ms returns 0x00000000
T4138 000:627.991 JLINK_WriteMem(0x20000114, 0x02EC Bytes, ...)
T4138 000:628.004   Data:  00 68 01 21 89 02 08 40 00 28 04 D0 E0 68 00 28 ...
T4138 000:628.020    -- CPU_WriteMem(748 bytes @ 0x20000114)
T4138 000:630.305 - 2.324ms returns 0x2EC
T4138 000:630.322 JLINK_WriteMem(0x20000400, 0x0114 Bytes, ...)
T4138 000:630.331   Data:  FF F7 BA FA 40 1B 64 49 88 42 01 D9 03 20 F6 E5 ...
T4138 000:630.347    -- CPU_WriteMem(276 bytes @ 0x20000400)
T4138 000:631.440 - 1.127ms returns 0x114
T4138 000:631.457 JLINK_WriteReg(R0, 0x08001400)
T4138 000:631.468 - 0.015ms returns 0x00
T4138 000:631.477 JLINK_WriteReg(R1, 0x00000400)
T4138 000:631.486 - 0.013ms returns 0x00
T4138 000:631.495 JLINK_WriteReg(R2, 0x20000114)
T4138 000:631.503 - 0.012ms returns 0x00
T4138 000:631.512 JLINK_WriteReg(R3, 0x00000000)
T4138 000:631.521 - 0.012ms returns 0x00
T4138 000:631.530 JLINK_WriteReg(R4, 0x00000000)
T4138 000:631.538 - 0.013ms returns 0x00
T4138 000:631.547 JLINK_WriteReg(R5, 0x00000000)
T4138 000:631.556 - 0.013ms returns 0x00
T4138 000:631.565 JLINK_WriteReg(R6, 0x00000000)
T4138 000:631.573 - 0.012ms returns 0x00
T4138 000:631.582 JLINK_WriteReg(R7, 0x00000000)
T4138 000:631.591 - 0.012ms returns 0x00
T4138 000:631.600 JLINK_WriteReg(R8, 0x00000000)
T4138 000:631.608 - 0.012ms returns 0x00
T4138 000:631.617 JLINK_WriteReg(R9, 0x20000110)
T4138 000:631.626 - 0.012ms returns 0x00
T4138 000:631.635 JLINK_WriteReg(R10, 0x00000000)
T4138 000:631.643 - 0.012ms returns 0x00
T4138 000:631.652 JLINK_WriteReg(R11, 0x00000000)
T4138 000:631.663 - 0.016ms returns 0x00
T4138 000:631.674 JLINK_WriteReg(R12, 0x00000000)
T4138 000:631.683 - 0.013ms returns 0x00
T4138 000:631.692 JLINK_WriteReg(R13 (SP), 0x20001000)
T4138 000:631.701 - 0.013ms returns 0x00
T4138 000:631.710 JLINK_WriteReg(R14, 0x20000001)
T4138 000:631.718 - 0.012ms returns 0x00
T4138 000:631.727 JLINK_WriteReg(R15 (PC), 0x200000BC)
T4138 000:631.737 - 0.014ms returns 0x00
T4138 000:631.746 JLINK_WriteReg(XPSR, 0x01000000)
T4138 000:631.755 - 0.012ms returns 0x00
T4138 000:631.763 JLINK_WriteReg(MSP, 0x20001000)
T4138 000:631.772 - 0.013ms returns 0x00
T4138 000:631.782 JLINK_WriteReg(PSP, 0x20001000)
T4138 000:631.790 - 0.013ms returns 0x00
T4138 000:631.799 JLINK_WriteReg(CFBP, 0x00000000)
T4138 000:631.807 - 0.012ms returns 0x00
T4138 000:631.817   JLINK_SetBPEx(Addr = 0x20000000, Type = 0xFFFFFFF2)
T4138 000:631.830 - 0.017ms returns 0x0000000A
T4138 000:631.839 JLINK_Go()
T4138 000:631.851    -- CPU_ReadMem(4 bytes @ 0xE0001000)
T4138 000:632.133    -- CPU_WriteMem(4 bytes @ 0xE0001000)
T4138 000:633.886 - 2.055ms
T4138 000:633.900 JLINK_IsHalted()
T4138 000:634.130 - 0.237ms returns FALSE
T4138 000:635.731 JLINK_IsHalted()
T4138 000:635.944 - 0.221ms returns FALSE
T4138 000:637.790 JLINK_IsHalted()
T4138 000:637.988 - 0.206ms returns FALSE
T4138 000:639.776 JLINK_IsHalted()
T4138 000:639.987 - 0.218ms returns FALSE
T4138 000:641.779 JLINK_IsHalted()
T4138 000:641.987 - 0.215ms returns FALSE
T4138 000:643.766 JLINK_IsHalted()
T4138 000:644.006 - 0.247ms returns FALSE
T4138 000:645.703 JLINK_IsHalted()
T4138 000:647.336    -- CPU_ReadMem(2 bytes @ 0x20000000)
T4138 000:647.633 - 1.937ms returns TRUE
T4138 000:647.647 JLINK_ReadReg(R15 (PC))
T4138 000:647.662 - 0.019ms returns 0x20000000
T4138 000:647.671 JLINK_ClrBPEx(BPHandle = 0x0000000A)
T4138 000:647.680 - 0.013ms returns 0x00
T4138 000:647.690 JLINK_ReadReg(R0)
T4138 000:647.700 - 0.014ms returns 0x00000000
T4138 000:648.013 JLINK_WriteMem(0x20000114, 0x02EC Bytes, ...)
T4138 000:648.027   Data:  23 49 08 40 20 49 40 39 C8 60 FF F7 2B FA 05 46 ...
T4138 000:648.043    -- CPU_WriteMem(748 bytes @ 0x20000114)
T4138 000:650.381 - 2.375ms returns 0x2EC
T4138 000:650.395 JLINK_WriteMem(0x20000400, 0x0114 Bytes, ...)
T4138 000:650.404   Data:  00 07 FE F7 B9 FF 00 22 11 46 0D 20 FF F7 44 F9 ...
T4138 000:650.419    -- CPU_WriteMem(276 bytes @ 0x20000400)
T4138 000:651.470 - 1.086ms returns 0x114
T4138 000:651.490 JLINK_WriteReg(R0, 0x08001800)
T4138 000:651.502 - 0.015ms returns 0x00
T4138 000:651.511 JLINK_WriteReg(R1, 0x00000400)
T4138 000:651.520 - 0.013ms returns 0x00
T4138 000:651.529 JLINK_WriteReg(R2, 0x20000114)
T4138 000:651.537 - 0.013ms returns 0x00
T4138 000:651.547 JLINK_WriteReg(R3, 0x00000000)
T4138 000:651.555 - 0.012ms returns 0x00
T4138 000:651.564 JLINK_WriteReg(R4, 0x00000000)
T4138 000:651.573 - 0.012ms returns 0x00
T4138 000:651.581 JLINK_WriteReg(R5, 0x00000000)
T4138 000:651.590 - 0.012ms returns 0x00
T4138 000:651.599 JLINK_WriteReg(R6, 0x00000000)
T4138 000:651.608 - 0.012ms returns 0x00
T4138 000:651.617 JLINK_WriteReg(R7, 0x00000000)
T4138 000:651.625 - 0.012ms returns 0x00
T4138 000:651.634 JLINK_WriteReg(R8, 0x00000000)
T4138 000:651.643 - 0.012ms returns 0x00
T4138 000:651.652 JLINK_WriteReg(R9, 0x20000110)
T4138 000:651.660 - 0.012ms returns 0x00
T4138 000:651.669 JLINK_WriteReg(R10, 0x00000000)
T4138 000:651.678 - 0.014ms returns 0x00
T4138 000:651.688 JLINK_WriteReg(R11, 0x00000000)
T4138 000:651.697 - 0.012ms returns 0x00
T4138 000:651.706 JLINK_WriteReg(R12, 0x00000000)
T4138 000:651.714 - 0.012ms returns 0x00
T4138 000:651.723 JLINK_WriteReg(R13 (SP), 0x20001000)
T4138 000:651.732 - 0.013ms returns 0x00
T4138 000:651.741 JLINK_WriteReg(R14, 0x20000001)
T4138 000:651.750 - 0.012ms returns 0x00
T4138 000:651.759 JLINK_WriteReg(R15 (PC), 0x200000BC)
T4138 000:651.767 - 0.012ms returns 0x00
T4138 000:651.776 JLINK_WriteReg(XPSR, 0x01000000)
T4138 000:651.785 - 0.012ms returns 0x00
T4138 000:651.794 JLINK_WriteReg(MSP, 0x20001000)
T4138 000:651.805 - 0.017ms returns 0x00
T4138 000:651.816 JLINK_WriteReg(PSP, 0x20001000)
T4138 000:651.825 - 0.013ms returns 0x00
T4138 000:651.833 JLINK_WriteReg(CFBP, 0x00000000)
T4138 000:651.842 - 0.012ms returns 0x00
T4138 000:651.852   JLINK_SetBPEx(Addr = 0x20000000, Type = 0xFFFFFFF2)
T4138 000:651.864 - 0.017ms returns 0x0000000B
T4138 000:651.873 JLINK_Go()
T4138 000:651.886    -- CPU_ReadMem(4 bytes @ 0xE0001000)
T4138 000:652.138    -- CPU_WriteMem(4 bytes @ 0xE0001000)
T4138 000:653.944 - 2.081ms
T4138 000:653.963 JLINK_IsHalted()
T4138 000:654.172 - 0.215ms returns FALSE
T4138 000:655.732 JLINK_IsHalted()
T4138 000:655.944 - 0.218ms returns FALSE
T4138 000:657.670 JLINK_IsHalted()
T4138 000:657.880 - 0.217ms returns FALSE
T4138 000:659.721 JLINK_IsHalted()
T4138 000:659.979 - 0.269ms returns FALSE
T4138 000:663.756 JLINK_IsHalted()
T4138 000:663.965 - 0.220ms returns FALSE
T4138 000:665.708 JLINK_IsHalted()
T4138 000:667.281    -- CPU_ReadMem(2 bytes @ 0x20000000)
T4138 000:667.541 - 1.840ms returns TRUE
T4138 000:667.555 JLINK_ReadReg(R15 (PC))
T4138 000:667.565 - 0.014ms returns 0x20000000
T4138 000:667.574 JLINK_ClrBPEx(BPHandle = 0x0000000B)
T4138 000:667.583 - 0.013ms returns 0x00
T4138 000:667.593 JLINK_ReadReg(R0)
T4138 000:667.602 - 0.012ms returns 0x00000000
T4138 000:667.911 JLINK_WriteMem(0x20000114, 0x02EC Bytes, ...)
T4138 000:667.925   Data:  7C FA 20 68 80 69 03 21 89 02 88 43 21 68 88 61 ...
T4138 000:667.941    -- CPU_WriteMem(748 bytes @ 0x20000114)
T4138 000:670.281 - 2.379ms returns 0x2EC
T4138 000:670.297 JLINK_WriteMem(0x20000400, 0x0114 Bytes, ...)
T4138 000:670.306   Data:  40 21 08 40 80 09 00 28 0B D0 20 68 C0 68 08 40 ...
T4138 000:670.322    -- CPU_WriteMem(276 bytes @ 0x20000400)
T4138 000:671.335 - 1.045ms returns 0x114
T4138 000:671.351 JLINK_WriteReg(R0, 0x08001C00)
T4138 000:671.361 - 0.014ms returns 0x00
T4138 000:671.370 JLINK_WriteReg(R1, 0x00000400)
T4138 000:671.379 - 0.013ms returns 0x00
T4138 000:671.388 JLINK_WriteReg(R2, 0x20000114)
T4138 000:671.397 - 0.012ms returns 0x00
T4138 000:671.405 JLINK_WriteReg(R3, 0x00000000)
T4138 000:671.413 - 0.012ms returns 0x00
T4138 000:671.423 JLINK_WriteReg(R4, 0x00000000)
T4138 000:671.431 - 0.012ms returns 0x00
T4138 000:671.440 JLINK_WriteReg(R5, 0x00000000)
T4138 000:671.449 - 0.012ms returns 0x00
T4138 000:671.458 JLINK_WriteReg(R6, 0x00000000)
T4138 000:671.466 - 0.012ms returns 0x00
T4138 000:671.475 JLINK_WriteReg(R7, 0x00000000)
T4138 000:671.483 - 0.012ms returns 0x00
T4138 000:671.492 JLINK_WriteReg(R8, 0x00000000)
T4138 000:671.501 - 0.012ms returns 0x00
T4138 000:671.510 JLINK_WriteReg(R9, 0x20000110)
T4138 000:671.518 - 0.013ms returns 0x00
T4138 000:671.527 JLINK_WriteReg(R10, 0x00000000)
T4138 000:671.536 - 0.012ms returns 0x00
T4138 000:671.545 JLINK_WriteReg(R11, 0x00000000)
T4138 000:671.553 - 0.012ms returns 0x00
T4138 000:671.562 JLINK_WriteReg(R12, 0x00000000)
T4138 000:671.571 - 0.012ms returns 0x00
T4138 000:671.580 JLINK_WriteReg(R13 (SP), 0x20001000)
T4138 000:671.589 - 0.013ms returns 0x00
T4138 000:671.598 JLINK_WriteReg(R14, 0x20000001)
T4138 000:671.607 - 0.012ms returns 0x00
T4138 000:671.615 JLINK_WriteReg(R15 (PC), 0x200000BC)
T4138 000:671.623 - 0.013ms returns 0x00
T4138 000:671.634 JLINK_WriteReg(XPSR, 0x01000000)
T4138 000:671.643 - 0.012ms returns 0x00
T4138 000:671.652 JLINK_WriteReg(MSP, 0x20001000)
T4138 000:671.660 - 0.012ms returns 0x00
T4138 000:671.669 JLINK_WriteReg(PSP, 0x20001000)
T4138 000:671.678 - 0.013ms returns 0x00
T4138 000:671.687 JLINK_WriteReg(CFBP, 0x00000000)
T4138 000:671.695 - 0.012ms returns 0x00
T4138 000:671.705   JLINK_SetBPEx(Addr = 0x20000000, Type = 0xFFFFFFF2)
T4138 000:671.717 - 0.017ms returns 0x0000000C
T4138 000:671.727 JLINK_Go()
T4138 000:671.739    -- CPU_ReadMem(4 bytes @ 0xE0001000)
T4138 000:672.011    -- CPU_WriteMem(4 bytes @ 0xE0001000)
T4138 000:673.757 - 2.038ms
T4138 000:673.771 JLINK_IsHalted()
T4138 000:674.005 - 0.241ms returns FALSE
T4138 000:675.626 JLINK_IsHalted()
T4138 000:675.809 - 0.190ms returns FALSE
T4138 000:677.617 JLINK_IsHalted()
T4138 000:677.818 - 0.208ms returns FALSE
T4138 000:679.611 JLINK_IsHalted()
T4138 000:679.818 - 0.213ms returns FALSE
T4138 000:681.662 JLINK_IsHalted()
T4138 000:681.864 - 0.209ms returns FALSE
T4138 000:683.660 JLINK_IsHalted()
T4138 000:683.864 - 0.211ms returns FALSE
T4138 000:685.596 JLINK_IsHalted()
T4138 000:687.183    -- CPU_ReadMem(2 bytes @ 0x20000000)
T4138 000:687.404 - 1.817ms returns TRUE
T4138 000:687.420 JLINK_ReadReg(R15 (PC))
T4138 000:687.430 - 0.014ms returns 0x20000000
T4138 000:687.440 JLINK_ClrBPEx(BPHandle = 0x0000000C)
T4138 000:687.449 - 0.012ms returns 0x00
T4138 000:687.458 JLINK_ReadReg(R0)
T4138 000:687.467 - 0.013ms returns 0x00000000
T4138 000:687.782 JLINK_WriteMem(0x20000114, 0x02EC Bytes, ...)
T4138 000:687.797   Data:  28 07 00 0F 01 90 01 98 00 28 13 D1 20 20 28 40 ...
T4138 000:687.813    -- CPU_WriteMem(748 bytes @ 0x20000114)
T4138 000:690.095 - 2.322ms returns 0x2EC
T4138 000:690.112 JLINK_WriteMem(0x20000400, 0x0114 Bytes, ...)
T4138 000:690.121   Data:  40 6B 04 21 08 43 31 49 40 39 48 63 08 46 40 6B ...
T4138 000:690.136    -- CPU_WriteMem(276 bytes @ 0x20000400)
T4138 000:691.153 - 1.050ms returns 0x114
T4138 000:691.170 JLINK_WriteReg(R0, 0x08002000)
T4138 000:691.180 - 0.014ms returns 0x00
T4138 000:691.189 JLINK_WriteReg(R1, 0x00000400)
T4138 000:691.197 - 0.012ms returns 0x00
T4138 000:691.207 JLINK_WriteReg(R2, 0x20000114)
T4138 000:691.215 - 0.012ms returns 0x00
T4138 000:691.224 JLINK_WriteReg(R3, 0x00000000)
T4138 000:691.233 - 0.013ms returns 0x00
T4138 000:691.242 JLINK_WriteReg(R4, 0x00000000)
T4138 000:691.251 - 0.012ms returns 0x00
T4138 000:691.259 JLINK_WriteReg(R5, 0x00000000)
T4138 000:691.268 - 0.012ms returns 0x00
